@
%1LINK V2718 0 1 # V2718 CONET-VME BRIDGE crate 1
%1LINK V2718 0 0 # V2718 CONET-VME BRIDGE crate 0
%1LINK V2718 1 0 # BRIDGE FOR TIMING SENDER
%1BASE_ADDRESS  V1724 32100000 876 1 0 # module 0  -- Crate 2
%1BASE_ADDRESS  V1724 22230000 770 0 0 # module 0  -- Crate 1
%1BASE_ADDRESS  V2718 EE000000 1868 0 1 # timing sender -- Crate Controller
%2LINK V2718 0 0 #
%2BASE_ADDRESS V1724 22240000 749 0 0 #
BLT_SIZE 524288
WRITE_MODE 2
RUN_START 1 1868
FILE_DEFINITION 0 0 10 500 1
FILE_PATH lheppc42

WRITE_REGISTER EF24 0 -1 -1 -1 
WRITE_REGISTER EF1C 1 -1 -1 -1
WRITE_REGISTER EF00 10 -1 -1 -1
WRITE_REGISTER 8100 5 -1 -1 -1  # toggle to 5 for s-in control, 0 for board
WRITE_REGISTER 8120 FF -1 -1 -1
WRITE_REGISTER 8114 2100 -1 -1 -1 #170us window after trigger
WRITE_REGISTER 810C C0000000  -1 -1 -1 # Software + External
WRITE_REGISTER 8110 C0000000 -1 -1 -1 # Software + External
WRITE_REGISTER 800C 4 -1 -1 -1
WRITE_REGISTER 8098 2000 -1 -1 -1
WRITE_REGISTER 8020 0 -1 -1 -1
WRITE_REGISTER 8028 190019 -1 -1 -1 # 25 words = 50 samples
WRITE_REGISTER 8024 80003E58 -1 -1 -1 # write the same threshold to all boards
			     
WRITE_REGISTER EF14 55AA -1 -1 -1 # Interrupt
WRITE_REGISTER EF18 0 -1 -1 -1 # Interrupt when 1 event stored

WRITE_REGISTER 8000 200D0 -1 -1 -1 # ZS ZIP+ Falling + Sequential + External signal + Non Overlap Triggers + AnalogSum
WRITE_REGISTER 811C 0 -1 -1 -1
WRITE_REGISTER 8144 2 -1 -1 -1 # ANALOG MONITOR MODE
WRITE_REGISTER 8150 8009ECFF -1 -1 -1 # all channels enabled, magnify=x1, offset=-240mV=492cnts
WRITE_REGISTER 8080 2E00 -1 -1 -1 # BROADCAST
WRITE_REGISTER 8084 2 -1 -1 -1 #BROADCAST
WRITE_REGISTER 811C 40 -1 -1 -1

#STUFF THAT WAS IN XML
WRITE_REGISTER 800C 9 -1 -1 -1
WRITE_REGISTER 8114 DF -1 -1 -1
WRITE_REGISTER 8144 2 -1 -1 -1
WRITE_REGISTER 8000 D0 -1 -1 -1
WRITE_REGISTER 8024 80003E76 -1 -1 -1
WRITE_REGISTER 8028 00320005 -1 -1 -1

#Baselines
WRITE_REGISTER 1098 1574 876 -1 -1
WRITE_REGISTER 1198 1574 876 -1 -1
WRITE_REGISTER 1298 13B7 876 -1 -1
WRITE_REGISTER 1398 13DD 876 -1 -1
WRITE_REGISTER 1498 143D 876 -1 -1
WRITE_REGISTER 1598 11EB 876 -1 -1
WRITE_REGISTER 1698 1268 876 -1 -1
WRITE_REGISTER 1798 1110 876 -1 -1

WRITE_REGISTER 1098 1299 770 -1 -1
WRITE_REGISTER 1198 1299 770 -1 -1
WRITE_REGISTER 1298 12FA 770 -1 -1
WRITE_REGISTER 1398 1482 770 -1 -1
WRITE_REGISTER 1498 144A 770 -1 -1
WRITE_REGISTER 1598 13C5 770 -1 -1
WRITE_REGISTER 1698 13D7 770 -1 -1
WRITE_REGISTER 1798 145C 770 -1 -1

WRITE_REGISTER 1098 1348 749 -1 -1
WRITE_REGISTER 1198 140E 749 -1 -1
WRITE_REGISTER 1298 0A87 749 -1 -1
WRITE_REGISTER 1398 0E4B 749 -1 -1
WRITE_REGISTER 1498 1303 749 -1 -1
WRITE_REGISTER 1598 0F9B 749 -1 -1
WRITE_REGISTER 1698 1157 749 -1 -1
WRITE_REGISTER 1798 1191 749 -1 -1

@
